
T0F60 000:282 SEGGER J-Link V4.98e Log File (0000ms, 0262ms total)
T0F60 000:282 DLL Compiled: May  5 2015 11:00:52 (0000ms, 0262ms total)
T0F60 000:282 Logging started @ 2015-12-09 17:39 (0000ms, 0262ms total)
T0F60 000:282 JLINK_SetWarnOutHandler(...) (0000ms, 0262ms total)
T0F60 000:282 JLINK_OpenEx(...)
Firmware: J-Link ARM-OB STM32 compiled Aug 22 2012 19:52:04
Hardware: V7.00
S/N: 20090928
Feature(s): RDI,FlashDL,FlashBP,JFlash,GDBFull  returns O.K. (0266ms, 0528ms total)
T0F60 000:548 JLINK_SetErrorOutHandler(...) (0000ms, 0528ms total)
T0F60 000:548 JLINK_ExecCommand("ProjectFile = "C:\Users\SY\Desktop\DTSÏîÄ¿\DTS-2500_HMI0030_BOOT\PROJECT\JLinkSettings.ini"", ...)  returns 0x00 (0000ms, 0528ms total)
T0F60 000:548 JLINK_ExecCommand("Device = STM32F407VE", ...)Device "STM32F407VE" selected.  returns 0x00 (0001ms, 0529ms total)
T0F60 000:549 JLINK_ExecCommand("DisableConnectionTimeout", ...)  returns 0x01 (0000ms, 0530ms total)
T0F60 000:550 JLINK_GetHardwareVersion()  returns 0x11170 (0000ms, 0530ms total)
T0F60 000:550 JLINK_GetDLLVersion()  returns 49805 (0000ms, 0530ms total)
T0F60 000:550 JLINK_GetFirmwareString(...) (0000ms, 0530ms total)
T0F60 000:554 JLINK_GetDLLVersion()  returns 49805 (0000ms, 0530ms total)
T0F60 000:554 JLINK_GetCompileDateTime() (0000ms, 0530ms total)
T0F60 000:556 JLINK_GetFirmwareString(...) (0000ms, 0530ms total)
T0F60 000:557 JLINK_GetHardwareVersion()  returns 0x11170 (0000ms, 0530ms total)
T0F60 000:559 JLINK_TIF_Select(JLINKARM_TIF_SWD)  returns 0x00 (0001ms, 0531ms total)
T0F60 000:560 JLINK_SetSpeed(5000) (0000ms, 0531ms total)
T0F60 000:561 JLINK_GetId() >0x108 TIF>Found SWD-DP with ID 0x2BA01477 >0x0D TIF> >0x28 TIF> >0x0D TIF> >0x28 TIF> >0x0D TIF> >0x21 TIF> >0x0D TIF> >0x28 TIF> >0x0D TIF> >0x28 TIF> >0x0D TIF> >0x28 TIF> >0x0D TIF> >0x21 TIF> >0x0D TIF> >0x21 TIF> >0x0D TIF> >0x28 TIF> >0x0D TIF> >0x21 TIF> >0x0D TIF> >0x21 TIF> >0x0D TIF> >0x28 TIF> >0x0D TIF> >0x21 TIF> >0x0D TIF> >0x21 TIF> >0x108 TIF>Found SWD-DP with ID 0x2BA01477 >0x0D TIF> >0x21 TIF> >0x0D TIF> >0x28 TIF> >0x0D TIF> >0x28 TIF> >0x0D TIF> >0x21 TIF>
 >0x0D TIF> >0x28 TIF> >0x0D TIF> >0x21 TIF> >0x0D TIF> >0x21 TIF> >0x0D TIF> >0x21 TIF> >0x0D TIF> >0x21 TIF> >0x0D TIF> >0x28 TIF> >0x0D TIF> >0x28 TIF> >0x0D TIF> >0x21 TIF> >0x0D TIF> >0x28 TIF> >0x0D TIF> >0x28 TIF> >0x0D TIF> >0x28 TIF> >0x0D TIF> >0x21 TIF> >0x0D TIF> >0x21 TIF> >0x0D TIF> >0x28 TIF> >0x0D TIF> >0x21 TIF> >0x0D TIF> >0x21 TIF>Found Cortex-M4 r0p1, Little endian. -- CPU_WriteMem(4 bytes @ 0xE0002000) -- CPU_ReadMem(4 bytes @ 0xE000EDF0) -- CPU_ReadMem(4 bytes @ 0xE0002000)
FPUnit: 6 code (BP) slots and 2 literal slots -- CPU_ReadMem(4 bytes @ 0xE000EDFC) -- CPU_ReadMem(4 bytes @ 0xE0001000) -- CPU_WriteMem(4 bytes @ 0xE0001000) -- CPU_ReadMem(4 bytes @ 0xE000ED88) -- CPU_WriteMem(4 bytes @ 0xE000ED88) -- CPU_ReadMem(4 bytes @ 0xE000ED88) -- CPU_WriteMem(4 bytes @ 0xE000ED88)CoreSight components:ROMTbl 0 @ E00FF000 -- CPU_ReadMem(16 bytes @ 0xE00FF000) -- CPU_ReadMem(16 bytes @ 0xE000EFF0) -- CPU_ReadMem(16 bytes @ 0xE000EFE0)
ROMTbl 0 [0]: FFF0F000, CID: B105E00D, PID: 000BB00C SCS -- CPU_ReadMem(16 bytes @ 0xE0001FF0) -- CPU_ReadMem(16 bytes @ 0xE0001FE0)ROMTbl 0 [1]: FFF02000, CID: B105E00D, PID: 003BB002 DWT -- CPU_ReadMem(16 bytes @ 0xE0002FF0) -- CPU_ReadMem(16 bytes @ 0xE0002FE0)ROMTbl 0 [2]: FFF03000, CID: B105E00D, PID: 002BB003 FPB -- CPU_ReadMem(16 bytes @ 0xE0000FF0) -- CPU_ReadMem(16 bytes @ 0xE0000FE0)ROMTbl 0 [3]: FFF01000, CID: B105E00D, PID: 003BB001 ITM -- CPU_ReadMem(16 bytes @ 0xE00FF010)
 -- CPU_ReadMem(16 bytes @ 0xE0040FF0) -- CPU_ReadMem(16 bytes @ 0xE0040FE0)ROMTbl 0 [4]: FFF41000, CID: B105900D, PID: 000BB9A1 TPIU -- CPU_ReadMem(16 bytes @ 0xE0041FF0) -- CPU_ReadMem(16 bytes @ 0xE0041FE0)ROMTbl 0 [5]: FFF42000, CID: B105900D, PID: 000BB925 ETM >0x0D TIF> >0x21 TIF>  returns 0x2BA01477 (0077ms, 0609ms total)
T0F60 000:638 JLINK_GetDLLVersion()  returns 49805 (0000ms, 0609ms total)
T0F60 000:638 JLINK_CORE_GetFound()  returns 0xE0000FF (0000ms, 0609ms total)
T0F60 000:638 JLINK_GetDebugInfo(0x100) -- Value=0xE00FF003  returns 0x00 (0000ms, 0609ms total)
T0F60 000:638 JLINK_ReadMem (0xE00FF000, 0x0020 Bytes, ...) -- CPU is running -- CPU_ReadMem(32 bytes @ 0xE00FF000) - Data: 03 F0 F0 FF 03 20 F0 FF 03 30 F0 FF 03 10 F0 FF ...  returns 0x00 (0001ms, 0610ms total)
T0F60 000:639 JLINK_ReadMem (0xE000EFF0, 0x0010 Bytes, ...) -- CPU is running -- CPU_ReadMem(16 bytes @ 0xE000EFF0) - Data: 0D 00 00 00 E0 00 00 00 05 00 00 00 B1 00 00 00  returns 0x00 (0001ms, 0611ms total)
T0F60 000:640 JLINK_ReadMem (0xE000EFD0, 0x0020 Bytes, ...) -- CPU is running -- CPU_ReadMem(32 bytes @ 0xE000EFD0) - Data: 04 00 00 00 00 00 00 00 00 00 00 00 00 00 00 00 ...  returns 0x00 (0001ms, 0612ms total)
T0F60 000:641 JLINK_ReadMem (0xE0001FF0, 0x0010 Bytes, ...) -- CPU is running -- CPU_ReadMem(16 bytes @ 0xE0001FF0) - Data: 0D 00 00 00 E0 00 00 00 05 00 00 00 B1 00 00 00  returns 0x00 (0001ms, 0613ms total)
T0F60 000:642 JLINK_ReadMem (0xE0001FD0, 0x0020 Bytes, ...) -- CPU is running -- CPU_ReadMem(32 bytes @ 0xE0001FD0) - Data: 04 00 00 00 00 00 00 00 00 00 00 00 00 00 00 00 ...  returns 0x00 (0001ms, 0614ms total)
T0F60 000:643 JLINK_ReadMem (0xE0002FF0, 0x0010 Bytes, ...) -- CPU is running -- CPU_ReadMem(16 bytes @ 0xE0002FF0) - Data: 0D 00 00 00 E0 00 00 00 05 00 00 00 B1 00 00 00  returns 0x00 (0001ms, 0615ms total)
T0F60 000:644 JLINK_ReadMem (0xE0002FD0, 0x0020 Bytes, ...) -- CPU is running -- CPU_ReadMem(32 bytes @ 0xE0002FD0) - Data: 04 00 00 00 00 00 00 00 00 00 00 00 00 00 00 00 ...  returns 0x00 (0001ms, 0616ms total)
T0F60 000:645 JLINK_ReadMem (0xE0000FF0, 0x0010 Bytes, ...) -- CPU is running -- CPU_ReadMem(16 bytes @ 0xE0000FF0) - Data: 0D 00 00 00 E0 00 00 00 05 00 00 00 B1 00 00 00  returns 0x00 (0001ms, 0617ms total)
T0F60 000:646 JLINK_ReadMem (0xE0000FD0, 0x0020 Bytes, ...) -- CPU is running -- CPU_ReadMem(32 bytes @ 0xE0000FD0) - Data: 04 00 00 00 00 00 00 00 00 00 00 00 00 00 00 00 ...  returns 0x00 (0001ms, 0618ms total)
T0F60 000:647 JLINK_ReadMem (0xE0040FF0, 0x0010 Bytes, ...) -- CPU is running -- CPU_ReadMem(16 bytes @ 0xE0040FF0) - Data: 0D 00 00 00 90 00 00 00 05 00 00 00 B1 00 00 00  returns 0x00 (0003ms, 0621ms total)
T0F60 000:650 JLINK_ReadMem (0xE0040FD0, 0x0020 Bytes, ...) -- CPU is running -- CPU_ReadMem(32 bytes @ 0xE0040FD0) - Data: 04 00 00 00 00 00 00 00 00 00 00 00 00 00 00 00 ...  returns 0x00 (0001ms, 0622ms total)
T0F60 000:651 JLINK_ReadMem (0xE0041FF0, 0x0010 Bytes, ...) -- CPU is running -- CPU_ReadMem(16 bytes @ 0xE0041FF0) - Data: 0D 00 00 00 90 00 00 00 05 00 00 00 B1 00 00 00  returns 0x00 (0001ms, 0623ms total)
T0F60 000:652 JLINK_ReadMem (0xE0041FD0, 0x0020 Bytes, ...) -- CPU is running -- CPU_ReadMem(32 bytes @ 0xE0041FD0) - Data: 04 00 00 00 00 00 00 00 00 00 00 00 00 00 00 00 ...  returns 0x00 (0001ms, 0624ms total)
T0F60 000:653 JLINK_ReadMemU32(0xE000EF40, 0x0001 Items, ...) -- CPU is running -- CPU_ReadMem(4 bytes @ 0xE000EF40) - Data: 21 00 11 10  returns 0x01 (0001ms, 0625ms total)
T0F60 000:654 JLINK_ReadMemU32(0xE000EF44, 0x0001 Items, ...) -- CPU is running -- CPU_ReadMem(4 bytes @ 0xE000EF44) - Data: 11 00 00 11  returns 0x01 (0000ms, 0625ms total)
T0F60 000:654 JLINK_ReadMemU32(0xE000ED00, 0x0001 Items, ...) -- CPU is running -- CPU_ReadMem(4 bytes @ 0xE000ED00) - Data: 41 C2 0F 41  returns 0x01 (0001ms, 0626ms total)
T0F60 000:655 JLINK_SetResetType(JLINKARM_RESET_TYPE_NORMAL)  returns JLINKARM_RESET_TYPE_NORMAL (0000ms, 0626ms total)
T0F60 000:655 JLINK_Reset() -- CPU is running -- CPU_WriteMem(4 bytes @ 0xE000EDF0) -- CPU is running -- CPU_WriteMem(4 bytes @ 0xE000EDFC) >0x35 TIF> -- CPU is running -- CPU_WriteMem(4 bytes @ 0xE000ED0C) -- CPU is running -- CPU_ReadMem(4 bytes @ 0xE000EDF0) -- CPU is running -- CPU_ReadMem(4 bytes @ 0xE000EDF0) -- CPU is running -- CPU_WriteMem(4 bytes @ 0xE000EDF0) -- CPU is running -- CPU_WriteMem(4 bytes @ 0xE000EDFC) -- CPU is running -- CPU_ReadMem(4 bytes @ 0xE000EDF0)
 -- CPU_WriteMem(4 bytes @ 0xE0002000) -- CPU_ReadMem(4 bytes @ 0xE000EDFC) -- CPU_ReadMem(4 bytes @ 0xE0001000) (0023ms, 0649ms total)
T0F60 000:678 JLINK_ReadReg(R15 (PC))  returns 0x0800019C (0000ms, 0649ms total)
T0F60 000:679 JLINK_ReadReg(XPSR)  returns 0x01000000 (0000ms, 0650ms total)
T0F60 000:679 JLINK_Halt()  returns 0x00 (0000ms, 0650ms total)
T0F60 000:679 JLINK_IsHalted()  returns TRUE (0000ms, 0650ms total)
T0F60 000:679 JLINK_ReadMemU32(0xE000EDF0, 0x0001 Items, ...) -- CPU_ReadMem(4 bytes @ 0xE000EDF0) - Data: 03 00 03 00  returns 0x01 (0000ms, 0650ms total)
T0F60 000:679 JLINK_WriteU32(0xE000EDF0, 0xA05F0003) -- CPU_WriteMem(4 bytes @ 0xE000EDF0)  returns 0x00 (0001ms, 0651ms total)
T0F60 000:680 JLINK_WriteU32(0xE000EDFC, 0x01000000) -- CPU_WriteMem(4 bytes @ 0xE000EDFC)  returns 0x00 (0001ms, 0652ms total)
T0F60 000:682 JLINK_GetHWStatus(...)  returns 0x00 (0000ms, 0652ms total)
T0F60 000:683 JLINK_GetNumBPUnits(Type = 0xFFFFFF00)  returns 0x06 (0000ms, 0652ms total)
T0F60 000:683 JLINK_GetNumBPUnits(Type = 0xF0)  returns 0x2000 (0000ms, 0652ms total)
T0F60 000:683 JLINK_GetNumWPUnits()  returns 0x04 (0000ms, 0652ms total)
T0F60 000:683 JLINK_GetSpeed()  returns 0xFA0 (0000ms, 0652ms total)
T0F60 000:684 JLINK_ReadMemU32(0xE000E004, 0x0001 Items, ...) -- CPU_ReadMem(4 bytes @ 0xE000E004) - Data: 02 00 00 00  returns 0x01 (0000ms, 0652ms total)
T0F60 000:684 JLINK_ReadMemU32(0xE000E004, 0x0001 Items, ...) -- CPU_ReadMem(4 bytes @ 0xE000E004) - Data: 02 00 00 00  returns 0x01 (0001ms, 0653ms total)
T0F60 000:685 JLINK_WriteMem(0xE0001000, 0x001C Bytes, ...) - Data: 01 00 00 00 00 00 00 00 00 00 00 00 00 00 00 00 ... -- CPU_WriteMem(28 bytes @ 0xE0001000)  returns 0x1C (0002ms, 0655ms total)
T0F60 000:687 JLINK_ReadMem (0xE0001000, 0x001C Bytes, ...) -- CPU_ReadMem(28 bytes @ 0xE0001000) - Data: 01 00 00 40 00 00 00 00 00 00 00 00 00 00 00 00 ...  returns 0x00 (0001ms, 0656ms total)
T0F60 000:688 JLINK_ReadReg(R15 (PC))  returns 0x0800019C (0000ms, 0656ms total)
T0F60 000:688 JLINK_ReadReg(XPSR)  returns 0x01000000 (0000ms, 0656ms total)
T0F60 000:829 JLINK_SetResetType(JLINKARM_RESET_TYPE_NORMAL)  returns JLINKARM_RESET_TYPE_NORMAL (0000ms, 0656ms total)
T0F60 000:829 JLINK_Reset() -- CPU_WriteMem(4 bytes @ 0xE000EDF0) -- CPU_WriteMem(4 bytes @ 0xE000EDFC) >0x35 TIF> -- CPU_WriteMem(4 bytes @ 0xE000ED0C) -- CPU_ReadMem(4 bytes @ 0xE000EDF0) -- CPU_ReadMem(4 bytes @ 0xE000EDF0) -- CPU_WriteMem(4 bytes @ 0xE000EDF0) -- CPU_WriteMem(4 bytes @ 0xE000EDFC) -- CPU is running -- CPU_ReadMem(4 bytes @ 0xE000EDF0) -- CPU_WriteMem(4 bytes @ 0xE0002000) -- CPU_ReadMem(4 bytes @ 0xE000EDFC) -- CPU_ReadMem(4 bytes @ 0xE0001000) (0022ms, 0678ms total)
T0F60 000:851 JLINK_ReadReg(R15 (PC))  returns 0x0800019C (0000ms, 0678ms total)
T0F60 000:851 JLINK_ReadReg(XPSR)  returns 0x01000000 (0000ms, 0678ms total)
T0F60 000:851 JLINK_ReadMem (0x0800019C, 0x003C Bytes, ...) -- CPU_ReadMem(128 bytes @ 0x08000180) -- Updating C cache (128 bytes @ 0x08000180) -- Read from C cache (60 bytes @ 0x0800019C) - Data: 06 48 80 47 06 48 00 47 FE E7 FE E7 FE E7 FE E7 ...  returns 0x00 (0002ms, 0680ms total)
T0F60 001:558 JLINK_ReadMem (0x08060B00, 0x009C Bytes, ...) -- CPU_ReadMem(192 bytes @ 0x08060B00) -- Updating C cache (192 bytes @ 0x08060B00) -- Read from C cache (156 bytes @ 0x08060B00) - Data: 5A 53 4A 00 31 3A 2F 74 65 73 74 2F 4B 59 53 4E ...  returns 0x00 (0004ms, 0684ms total)
T246C 002:120 JLINK_SetBPEx(Addr = 0x08010228, Type = 0xFFFFFFF2)  returns 0x00000001 (0001ms, 0685ms total)
T246C 002:121 JLINK_Go() -- CPU_WriteMem(4 bytes @ 0xE0002000) -- CPU_ReadMem(4 bytes @ 0xE0001000) -- CPU_WriteMem(4 bytes @ 0xE0002008) -- CPU_WriteMem(4 bytes @ 0xE000200C) -- CPU_WriteMem(4 bytes @ 0xE0002010) -- CPU_WriteMem(4 bytes @ 0xE0002014) -- CPU_WriteMem(4 bytes @ 0xE0002018) -- CPU_WriteMem(4 bytes @ 0xE000201C) -- CPU_WriteMem(4 bytes @ 0xE0001004) (0008ms, 0693ms total)
T246C 002:229 JLINK_IsHalted()  returns TRUE (0003ms, 0696ms total)
T246C 002:232 JLINK_Halt()  returns 0x00 (0000ms, 0693ms total)
T246C 002:232 JLINK_IsHalted()  returns TRUE (0000ms, 0693ms total)
T246C 002:232 JLINK_IsHalted()  returns TRUE (0000ms, 0693ms total)
T246C 002:232 JLINK_IsHalted()  returns TRUE (0001ms, 0694ms total)
T246C 002:233 JLINK_ReadReg(R15 (PC))  returns 0x08010228 (0000ms, 0693ms total)
T246C 002:233 JLINK_ReadReg(XPSR)  returns 0x61000000 (0000ms, 0693ms total)
T246C 002:233 JLINK_ClrBPEx(BPHandle = 0x00000001)  returns 0x00 (0000ms, 0693ms total)
T246C 002:233 JLINK_ReadMemU32(0xE000ED30, 0x0001 Items, ...) -- CPU_ReadMem(4 bytes @ 0xE000ED30) - Data: 03 00 00 00  returns 0x01 (0000ms, 0693ms total)
T246C 002:233 JLINK_ReadMemU32(0xE0001028, 0x0001 Items, ...) -- CPU_ReadMem(4 bytes @ 0xE0001028) - Data: 00 00 00 00  returns 0x01 (0001ms, 0694ms total)
T246C 002:234 JLINK_ReadMemU32(0xE0001038, 0x0001 Items, ...) -- CPU_ReadMem(4 bytes @ 0xE0001038) - Data: 00 02 00 00  returns 0x01 (0001ms, 0695ms total)
T246C 002:235 JLINK_ReadMemU32(0xE0001048, 0x0001 Items, ...) -- CPU_ReadMem(4 bytes @ 0xE0001048) - Data: 00 00 00 00  returns 0x01 (0002ms, 0697ms total)
T246C 002:237 JLINK_ReadMemU32(0xE0001058, 0x0001 Items, ...) -- CPU_ReadMem(4 bytes @ 0xE0001058) - Data: 00 00 00 00  returns 0x01 (0001ms, 0698ms total)
T246C 002:239 JLINK_ReadReg(R0)  returns 0x08010229 (0000ms, 0698ms total)
T246C 002:239 JLINK_ReadReg(R1)  returns 0x20011FB8 (0000ms, 0698ms total)
T246C 002:239 JLINK_ReadReg(R2)  returns 0x00000000 (0000ms, 0698ms total)
T246C 002:239 JLINK_ReadReg(R3)  returns 0x0800BD3D (0000ms, 0698ms total)
T246C 002:239 JLINK_ReadReg(R4)  returns 0x08017E00 (0000ms, 0698ms total)
T246C 002:239 JLINK_ReadReg(R5)  returns 0x08017E00 (0000ms, 0698ms total)
T246C 002:239 JLINK_ReadReg(R6)  returns 0x00000000 (0000ms, 0698ms total)
T246C 002:239 JLINK_ReadReg(R7)  returns 0x00000000 (0000ms, 0698ms total)
T246C 002:239 JLINK_ReadReg(R8)  returns 0x00000000 (0000ms, 0698ms total)
T246C 002:239 JLINK_ReadReg(R9)  returns 0x00000000 (0000ms, 0698ms total)
T246C 002:239 JLINK_ReadReg(R10)  returns 0x00000000 (0000ms, 0698ms total)
T246C 002:239 JLINK_ReadReg(R11)  returns 0x00000000 (0000ms, 0698ms total)
T246C 002:239 JLINK_ReadReg(R12)  returns 0x00000000 (0000ms, 0698ms total)
T246C 002:239 JLINK_ReadReg(R13 (SP))  returns 0x20011FB8 (0000ms, 0698ms total)
T246C 002:239 JLINK_ReadReg(R14)  returns 0x08000295 (0000ms, 0698ms total)
T246C 002:239 JLINK_ReadReg(R15 (PC))  returns 0x08010228 (0000ms, 0698ms total)
T246C 002:239 JLINK_ReadReg(XPSR)  returns 0x61000000 (0000ms, 0698ms total)
T246C 002:239 JLINK_ReadReg(MSP)  returns 0x20011FB8 (0000ms, 0698ms total)
T246C 002:239 JLINK_ReadReg(PSP)  returns 0x00000000 (0000ms, 0698ms total)
T246C 002:239 JLINK_ReadReg(CFBP)  returns 0x00000000 (0000ms, 0698ms total)
T246C 002:239 JLINK_ReadReg(FPSCR)  returns 0x00000000 (0006ms, 0704ms total)
T246C 002:245 JLINK_ReadReg(FPS0)  returns 0x00000000 (0000ms, 0704ms total)
T246C 002:245 JLINK_ReadReg(FPS1)  returns 0x00000000 (0000ms, 0704ms total)
T246C 002:245 JLINK_ReadReg(FPS2)  returns 0x00000000 (0000ms, 0704ms total)
T246C 002:245 JLINK_ReadReg(FPS3)  returns 0x00000000 (0000ms, 0704ms total)
T246C 002:245 JLINK_ReadReg(FPS4)  returns 0x00000000 (0000ms, 0704ms total)
T246C 002:245 JLINK_ReadReg(FPS5)  returns 0x00000000 (0000ms, 0704ms total)
T246C 002:245 JLINK_ReadReg(FPS6)  returns 0x00000000 (0000ms, 0704ms total)
T246C 002:245 JLINK_ReadReg(FPS7)  returns 0x00000000 (0000ms, 0704ms total)
T246C 002:245 JLINK_ReadReg(FPS8)  returns 0x00000000 (0000ms, 0704ms total)
T246C 002:245 JLINK_ReadReg(FPS9)  returns 0x00000000 (0000ms, 0704ms total)
T246C 002:245 JLINK_ReadReg(FPS10)  returns 0x00000000 (0000ms, 0704ms total)
T246C 002:245 JLINK_ReadReg(FPS11)  returns 0x00000000 (0000ms, 0704ms total)
T246C 002:245 JLINK_ReadReg(FPS12)  returns 0x00000000 (0000ms, 0704ms total)
T246C 002:245 JLINK_ReadReg(FPS13)  returns 0x00000000 (0000ms, 0704ms total)
T246C 002:245 JLINK_ReadReg(FPS14)  returns 0x00000000 (0000ms, 0704ms total)
T246C 002:245 JLINK_ReadReg(FPS15)  returns 0x00000000 (0000ms, 0704ms total)
T246C 002:245 JLINK_ReadReg(FPS16)  returns 0x00000000 (0000ms, 0704ms total)
T246C 002:245 JLINK_ReadReg(FPS17)  returns 0x00000000 (0000ms, 0704ms total)
T246C 002:245 JLINK_ReadReg(FPS18)  returns 0x00000000 (0000ms, 0704ms total)
T246C 002:245 JLINK_ReadReg(FPS19)  returns 0x00000000 (0001ms, 0705ms total)
T246C 002:246 JLINK_ReadReg(FPS20)  returns 0x00000000 (0000ms, 0705ms total)
T246C 002:246 JLINK_ReadReg(FPS21)  returns 0x00000000 (0000ms, 0705ms total)
T246C 002:246 JLINK_ReadReg(FPS22)  returns 0x00000000 (0000ms, 0705ms total)
T246C 002:246 JLINK_ReadReg(FPS23)  returns 0x00000000 (0000ms, 0705ms total)
T246C 002:246 JLINK_ReadReg(FPS24)  returns 0x00000000 (0000ms, 0705ms total)
T246C 002:246 JLINK_ReadReg(FPS25)  returns 0x00000000 (0000ms, 0705ms total)
T246C 002:246 JLINK_ReadReg(FPS26)  returns 0x00000000 (0000ms, 0705ms total)
T246C 002:246 JLINK_ReadReg(FPS27)  returns 0x00000000 (0000ms, 0705ms total)
T246C 002:246 JLINK_ReadReg(FPS28)  returns 0x00000000 (0000ms, 0705ms total)
T246C 002:246 JLINK_ReadReg(FPS29)  returns 0x00000000 (0000ms, 0705ms total)
T246C 002:246 JLINK_ReadReg(FPS30)  returns 0x00000000 (0000ms, 0705ms total)
T246C 002:246 JLINK_ReadReg(FPS31)  returns 0x00000000 (0000ms, 0705ms total)
T0F60 002:247 JLINK_ReadMem (0x08010228, 0x003C Bytes, ...) -- CPU_ReadMem(128 bytes @ 0x08010200) -- Updating C cache (128 bytes @ 0x08010200) -- Read from C cache (60 bytes @ 0x08010228) - Data: 2D E9 FC 41 00 24 01 25 00 26 00 27 F3 F7 3C FE ...  returns 0x00 (0002ms, 0707ms total)
T246C 008:422 JLINK_SetBPEx(Addr = 0x0801025C, Type = 0xFFFFFFF2)  returns 0x00000002 (0001ms, 0708ms total)
T246C 008:423 JLINK_Go() -- CPU_WriteMem(4 bytes @ 0xE0002000) -- CPU_ReadMem(4 bytes @ 0xE0001000) -- CPU_WriteMem(4 bytes @ 0xE0002008) (0004ms, 0712ms total)
T246C 008:527 JLINK_IsHalted()  returns TRUE (0003ms, 0715ms total)
T246C 008:530 JLINK_Halt()  returns 0x00 (0000ms, 0712ms total)
T246C 008:530 JLINK_IsHalted()  returns TRUE (0000ms, 0712ms total)
T246C 008:530 JLINK_IsHalted()  returns TRUE (0000ms, 0712ms total)
T246C 008:530 JLINK_IsHalted()  returns TRUE (0000ms, 0712ms total)
T246C 008:530 JLINK_ReadReg(R15 (PC))  returns 0x0801025C (0000ms, 0712ms total)
T246C 008:530 JLINK_ReadReg(XPSR)  returns 0x41000000 (0000ms, 0712ms total)
T246C 008:530 JLINK_ClrBPEx(BPHandle = 0x00000002)  returns 0x00 (0000ms, 0712ms total)
T246C 008:530 JLINK_ReadMemU32(0xE000ED30, 0x0001 Items, ...) -- CPU_ReadMem(4 bytes @ 0xE000ED30) - Data: 03 00 00 00  returns 0x01 (0001ms, 0713ms total)
T246C 008:531 JLINK_ReadMemU32(0xE0001028, 0x0001 Items, ...) -- CPU_ReadMem(4 bytes @ 0xE0001028) - Data: 00 00 00 00  returns 0x01 (0001ms, 0714ms total)
T246C 008:532 JLINK_ReadMemU32(0xE0001038, 0x0001 Items, ...) -- CPU_ReadMem(4 bytes @ 0xE0001038) - Data: 00 02 00 00  returns 0x01 (0001ms, 0715ms total)
T246C 008:533 JLINK_ReadMemU32(0xE0001048, 0x0001 Items, ...) -- CPU_ReadMem(4 bytes @ 0xE0001048) - Data: 00 00 00 00  returns 0x01 (0001ms, 0716ms total)
T246C 008:534 JLINK_ReadMemU32(0xE0001058, 0x0001 Items, ...) -- CPU_ReadMem(4 bytes @ 0xE0001058) - Data: 00 00 00 00  returns 0x01 (0000ms, 0716ms total)
T246C 008:534 JLINK_ReadReg(R0)  returns 0x00000000 (0000ms, 0716ms total)
T246C 008:534 JLINK_ReadReg(R1)  returns 0x00000001 (0000ms, 0716ms total)
T246C 008:534 JLINK_ReadReg(R2)  returns 0x000000B4 (0001ms, 0717ms total)
T246C 008:535 JLINK_ReadReg(R3)  returns 0x00000001 (0000ms, 0717ms total)
T246C 008:535 JLINK_ReadReg(R4)  returns 0x00000000 (0000ms, 0717ms total)
T246C 008:535 JLINK_ReadReg(R5)  returns 0x00000000 (0000ms, 0717ms total)
T246C 008:535 JLINK_ReadReg(R6)  returns 0x00000000 (0000ms, 0717ms total)
T246C 008:535 JLINK_ReadReg(R7)  returns 0x00000000 (0000ms, 0717ms total)
T246C 008:535 JLINK_ReadReg(R8)  returns 0x00000000 (0000ms, 0717ms total)
T246C 008:535 JLINK_ReadReg(R9)  returns 0x00000000 (0000ms, 0717ms total)
T246C 008:535 JLINK_ReadReg(R10)  returns 0x00000000 (0000ms, 0717ms total)
T246C 008:535 JLINK_ReadReg(R11)  returns 0x00000000 (0000ms, 0717ms total)
T246C 008:535 JLINK_ReadReg(R12)  returns 0x00000150 (0000ms, 0717ms total)
T246C 008:535 JLINK_ReadReg(R13 (SP))  returns 0x20011F98 (0000ms, 0717ms total)
T246C 008:535 JLINK_ReadReg(R14)  returns 0x08003497 (0000ms, 0717ms total)
T246C 008:535 JLINK_ReadReg(R15 (PC))  returns 0x0801025C (0000ms, 0717ms total)
T246C 008:535 JLINK_ReadReg(XPSR)  returns 0x41000000 (0000ms, 0717ms total)
T246C 008:535 JLINK_ReadReg(MSP)  returns 0x20011F98 (0000ms, 0717ms total)
T246C 008:535 JLINK_ReadReg(PSP)  returns 0x00000000 (0000ms, 0717ms total)
T246C 008:535 JLINK_ReadReg(CFBP)  returns 0x00000000 (0000ms, 0717ms total)
T246C 008:535 JLINK_ReadReg(FPSCR)  returns 0x00000000 (0008ms, 0725ms total)
T246C 008:543 JLINK_ReadReg(FPS0)  returns 0x00000000 (0000ms, 0725ms total)
T246C 008:543 JLINK_ReadReg(FPS1)  returns 0x00000000 (0000ms, 0725ms total)
T246C 008:543 JLINK_ReadReg(FPS2)  returns 0x00000000 (0000ms, 0725ms total)
T246C 008:543 JLINK_ReadReg(FPS3)  returns 0x00000000 (0000ms, 0725ms total)
T246C 008:543 JLINK_ReadReg(FPS4)  returns 0x00000000 (0000ms, 0725ms total)
T246C 008:543 JLINK_ReadReg(FPS5)  returns 0x00000000 (0000ms, 0725ms total)
T246C 008:543 JLINK_ReadReg(FPS6)  returns 0x00000000 (0000ms, 0725ms total)
T246C 008:543 JLINK_ReadReg(FPS7)  returns 0x00000000 (0000ms, 0725ms total)
T246C 008:543 JLINK_ReadReg(FPS8)  returns 0x00000000 (0000ms, 0725ms total)
T246C 008:543 JLINK_ReadReg(FPS9)  returns 0x00000000 (0000ms, 0725ms total)
T246C 008:543 JLINK_ReadReg(FPS10)  returns 0x00000000 (0000ms, 0725ms total)
T246C 008:543 JLINK_ReadReg(FPS11)  returns 0x00000000 (0000ms, 0725ms total)
T246C 008:544 JLINK_ReadReg(FPS12)  returns 0x00000000 (0000ms, 0725ms total)
T246C 008:544 JLINK_ReadReg(FPS13)  returns 0x00000000 (0000ms, 0725ms total)
T246C 008:544 JLINK_ReadReg(FPS14)  returns 0x00000000 (0000ms, 0725ms total)
T246C 008:544 JLINK_ReadReg(FPS15)  returns 0x00000000 (0000ms, 0725ms total)
T246C 008:544 JLINK_ReadReg(FPS16)  returns 0x00000000 (0000ms, 0725ms total)
T246C 008:544 JLINK_ReadReg(FPS17)  returns 0x00000000 (0000ms, 0725ms total)
T246C 008:544 JLINK_ReadReg(FPS18)  returns 0x00000000 (0000ms, 0725ms total)
T246C 008:544 JLINK_ReadReg(FPS19)  returns 0x00000000 (0000ms, 0725ms total)
T246C 008:544 JLINK_ReadReg(FPS20)  returns 0x00000000 (0000ms, 0725ms total)
T246C 008:544 JLINK_ReadReg(FPS21)  returns 0x00000000 (0000ms, 0725ms total)
T246C 008:544 JLINK_ReadReg(FPS22)  returns 0x00000000 (0000ms, 0725ms total)
T246C 008:544 JLINK_ReadReg(FPS23)  returns 0x00000000 (0000ms, 0725ms total)
T246C 008:544 JLINK_ReadReg(FPS24)  returns 0x00000000 (0000ms, 0725ms total)
T246C 008:544 JLINK_ReadReg(FPS25)  returns 0x00000000 (0000ms, 0725ms total)
T246C 008:544 JLINK_ReadReg(FPS26)  returns 0x00000000 (0000ms, 0725ms total)
T246C 008:544 JLINK_ReadReg(FPS27)  returns 0x00000000 (0000ms, 0725ms total)
T246C 008:544 JLINK_ReadReg(FPS28)  returns 0x00000000 (0000ms, 0725ms total)
T246C 008:544 JLINK_ReadReg(FPS29)  returns 0x00000000 (0000ms, 0725ms total)
T246C 008:544 JLINK_ReadReg(FPS30)  returns 0x00000000 (0001ms, 0726ms total)
T246C 008:545 JLINK_ReadReg(FPS31)  returns 0x00000000 (0000ms, 0726ms total)
T246C 012:920 JLINK_Step() -- CPU_ReadMem(64 bytes @ 0x08010240) -- Updating C cache (64 bytes @ 0x08010240) -- Read from C cache (2 bytes @ 0x0801025C) -- CPU_ReadMem(4 bytes @ 0xE0001004) -- Read from C cache (2 bytes @ 0x0801025E) -- Simulated  returns 0x00 (0006ms, 0732ms total)
T246C 012:926 JLINK_ReadReg(R15 (PC))  returns 0x080009D4 (0000ms, 0732ms total)
T246C 012:926 JLINK_ReadReg(XPSR)  returns 0x41000000 (0000ms, 0732ms total)
T246C 012:926 JLINK_ReadReg(R0)  returns 0x00000000 (0000ms, 0732ms total)
T246C 012:926 JLINK_ReadReg(R1)  returns 0x00000001 (0000ms, 0732ms total)
T246C 012:926 JLINK_ReadReg(R2)  returns 0x000000B4 (0000ms, 0732ms total)
T246C 012:926 JLINK_ReadReg(R3)  returns 0x00000001 (0000ms, 0732ms total)
T246C 012:926 JLINK_ReadReg(R4)  returns 0x00000000 (0000ms, 0732ms total)
T246C 012:926 JLINK_ReadReg(R5)  returns 0x00000000 (0000ms, 0732ms total)
T246C 012:926 JLINK_ReadReg(R6)  returns 0x00000000 (0000ms, 0732ms total)
T246C 012:926 JLINK_ReadReg(R7)  returns 0x00000000 (0000ms, 0732ms total)
T246C 012:926 JLINK_ReadReg(R8)  returns 0x00000000 (0000ms, 0732ms total)
T246C 012:926 JLINK_ReadReg(R9)  returns 0x00000000 (0000ms, 0732ms total)
T246C 012:926 JLINK_ReadReg(R10)  returns 0x00000000 (0000ms, 0732ms total)
T246C 012:926 JLINK_ReadReg(R11)  returns 0x00000000 (0000ms, 0732ms total)
T246C 012:926 JLINK_ReadReg(R12)  returns 0x00000150 (0000ms, 0732ms total)
T246C 012:926 JLINK_ReadReg(R13 (SP))  returns 0x20011F98 (0000ms, 0732ms total)
T246C 012:926 JLINK_ReadReg(R14)  returns 0x08010261 (0000ms, 0732ms total)
T246C 012:926 JLINK_ReadReg(R15 (PC))  returns 0x080009D4 (0001ms, 0733ms total)
T246C 012:927 JLINK_ReadReg(XPSR)  returns 0x41000000 (0000ms, 0733ms total)
T246C 012:927 JLINK_ReadReg(MSP)  returns 0x20011F98 (0000ms, 0733ms total)
T246C 012:927 JLINK_ReadReg(PSP)  returns 0x00000000 (0000ms, 0733ms total)
T246C 012:927 JLINK_ReadReg(CFBP)  returns 0x00000000 (0000ms, 0733ms total)
T246C 012:927 JLINK_ReadReg(FPSCR)  returns 0x00000000 (0000ms, 0733ms total)
T246C 012:927 JLINK_ReadReg(FPS0)  returns 0x00000000 (0000ms, 0733ms total)
T246C 012:927 JLINK_ReadReg(FPS1)  returns 0x00000000 (0000ms, 0733ms total)
T246C 012:927 JLINK_ReadReg(FPS2)  returns 0x00000000 (0000ms, 0733ms total)
T246C 012:927 JLINK_ReadReg(FPS3)  returns 0x00000000 (0000ms, 0733ms total)
T246C 012:927 JLINK_ReadReg(FPS4)  returns 0x00000000 (0000ms, 0733ms total)
T246C 012:927 JLINK_ReadReg(FPS5)  returns 0x00000000 (0000ms, 0733ms total)
T246C 012:927 JLINK_ReadReg(FPS6)  returns 0x00000000 (0000ms, 0733ms total)
T246C 012:927 JLINK_ReadReg(FPS7)  returns 0x00000000 (0000ms, 0733ms total)
T246C 012:927 JLINK_ReadReg(FPS8)  returns 0x00000000 (0000ms, 0733ms total)
T246C 012:927 JLINK_ReadReg(FPS9)  returns 0x00000000 (0000ms, 0733ms total)
T246C 012:927 JLINK_ReadReg(FPS10)  returns 0x00000000 (0000ms, 0733ms total)
T246C 012:927 JLINK_ReadReg(FPS11)  returns 0x00000000 (0000ms, 0733ms total)
T246C 012:927 JLINK_ReadReg(FPS12)  returns 0x00000000 (0000ms, 0733ms total)
T246C 012:927 JLINK_ReadReg(FPS13)  returns 0x00000000 (0000ms, 0733ms total)
T246C 012:927 JLINK_ReadReg(FPS14)  returns 0x00000000 (0000ms, 0733ms total)
T246C 012:927 JLINK_ReadReg(FPS15)  returns 0x00000000 (0000ms, 0733ms total)
T246C 012:927 JLINK_ReadReg(FPS16)  returns 0x00000000 (0000ms, 0733ms total)
T246C 012:927 JLINK_ReadReg(FPS17)  returns 0x00000000 (0000ms, 0733ms total)
T246C 012:927 JLINK_ReadReg(FPS18)  returns 0x00000000 (0000ms, 0733ms total)
T246C 012:927 JLINK_ReadReg(FPS19)  returns 0x00000000 (0000ms, 0733ms total)
T246C 012:928 JLINK_ReadReg(FPS20)  returns 0x00000000 (0000ms, 0734ms total)
T246C 012:928 JLINK_ReadReg(FPS21)  returns 0x00000000 (0000ms, 0734ms total)
T246C 012:928 JLINK_ReadReg(FPS22)  returns 0x00000000 (0000ms, 0734ms total)
T246C 012:928 JLINK_ReadReg(FPS23)  returns 0x00000000 (0000ms, 0734ms total)
T246C 012:928 JLINK_ReadReg(FPS24)  returns 0x00000000 (0000ms, 0734ms total)
T246C 012:928 JLINK_ReadReg(FPS25)  returns 0x00000000 (0000ms, 0734ms total)
T246C 012:928 JLINK_ReadReg(FPS26)  returns 0x00000000 (0000ms, 0734ms total)
T246C 012:928 JLINK_ReadReg(FPS27)  returns 0x00000000 (0000ms, 0734ms total)
T246C 012:928 JLINK_ReadReg(FPS28)  returns 0x00000000 (0000ms, 0734ms total)
T246C 012:928 JLINK_ReadReg(FPS29)  returns 0x00000000 (0000ms, 0734ms total)
T246C 012:928 JLINK_ReadReg(FPS30)  returns 0x00000000 (0000ms, 0734ms total)
T246C 012:928 JLINK_ReadReg(FPS31)  returns 0x00000000 (0000ms, 0734ms total)
T0F60 012:928 JLINK_ReadMem (0x080009D4, 0x003C Bytes, ...) -- CPU_ReadMem(128 bytes @ 0x080009C0) -- Updating C cache (128 bytes @ 0x080009C0) -- Read from C cache (60 bytes @ 0x080009D4) - Data: 10 B5 08 4C 08 49 20 68 88 42 09 D1 4F F0 FF 31 ...  returns 0x00 (0002ms, 0736ms total)
T246C 014:127 JLINK_Step() -- Read from C cache (2 bytes @ 0x080009D4) -- CPU_WriteMem(8 bytes @ 0x20011F90) -- Simulated  returns 0x00 (0005ms, 0741ms total)
T246C 014:132 JLINK_ReadReg(R15 (PC))  returns 0x080009D6 (0000ms, 0741ms total)
T246C 014:132 JLINK_ReadReg(XPSR)  returns 0x41000000 (0000ms, 0741ms total)
T246C 014:132 JLINK_ReadReg(R0)  returns 0x00000000 (0000ms, 0741ms total)
T246C 014:132 JLINK_ReadReg(R1)  returns 0x00000001 (0000ms, 0741ms total)
T246C 014:132 JLINK_ReadReg(R2)  returns 0x000000B4 (0001ms, 0742ms total)
T246C 014:133 JLINK_ReadReg(R3)  returns 0x00000001 (0000ms, 0742ms total)
T246C 014:133 JLINK_ReadReg(R4)  returns 0x00000000 (0000ms, 0742ms total)
T246C 014:133 JLINK_ReadReg(R5)  returns 0x00000000 (0000ms, 0742ms total)
T246C 014:133 JLINK_ReadReg(R6)  returns 0x00000000 (0000ms, 0742ms total)
T246C 014:133 JLINK_ReadReg(R7)  returns 0x00000000 (0000ms, 0742ms total)
T246C 014:133 JLINK_ReadReg(R8)  returns 0x00000000 (0000ms, 0742ms total)
T246C 014:133 JLINK_ReadReg(R9)  returns 0x00000000 (0000ms, 0742ms total)
T246C 014:133 JLINK_ReadReg(R10)  returns 0x00000000 (0000ms, 0742ms total)
T246C 014:133 JLINK_ReadReg(R11)  returns 0x00000000 (0000ms, 0742ms total)
T246C 014:133 JLINK_ReadReg(R12)  returns 0x00000150 (0000ms, 0742ms total)
T246C 014:133 JLINK_ReadReg(R13 (SP))  returns 0x20011F90 (0000ms, 0742ms total)
T246C 014:133 JLINK_ReadReg(R14)  returns 0x08010261 (0000ms, 0742ms total)
T246C 014:133 JLINK_ReadReg(R15 (PC))  returns 0x080009D6 (0000ms, 0742ms total)
T246C 014:133 JLINK_ReadReg(XPSR)  returns 0x41000000 (0000ms, 0742ms total)
T246C 014:133 JLINK_ReadReg(MSP)  returns 0x20011F90 (0000ms, 0742ms total)
T246C 014:133 JLINK_ReadReg(PSP)  returns 0x00000000 (0000ms, 0742ms total)
T246C 014:133 JLINK_ReadReg(CFBP)  returns 0x00000000 (0000ms, 0742ms total)
T246C 014:133 JLINK_ReadReg(FPSCR)  returns 0x00000000 (0000ms, 0742ms total)
T246C 014:133 JLINK_ReadReg(FPS0)  returns 0x00000000 (0000ms, 0742ms total)
T246C 014:133 JLINK_ReadReg(FPS1)  returns 0x00000000 (0001ms, 0743ms total)
T246C 014:134 JLINK_ReadReg(FPS2)  returns 0x00000000 (0000ms, 0743ms total)
T246C 014:134 JLINK_ReadReg(FPS3)  returns 0x00000000 (0000ms, 0743ms total)
T246C 014:134 JLINK_ReadReg(FPS4)  returns 0x00000000 (0000ms, 0743ms total)
T246C 014:134 JLINK_ReadReg(FPS5)  returns 0x00000000 (0000ms, 0743ms total)
T246C 014:134 JLINK_ReadReg(FPS6)  returns 0x00000000 (0000ms, 0743ms total)
T246C 014:134 JLINK_ReadReg(FPS7)  returns 0x00000000 (0000ms, 0743ms total)
T246C 014:134 JLINK_ReadReg(FPS8)  returns 0x00000000 (0000ms, 0743ms total)
T246C 014:134 JLINK_ReadReg(FPS9)  returns 0x00000000 (0000ms, 0743ms total)
T246C 014:134 JLINK_ReadReg(FPS10)  returns 0x00000000 (0000ms, 0743ms total)
T246C 014:134 JLINK_ReadReg(FPS11)  returns 0x00000000 (0000ms, 0743ms total)
T246C 014:134 JLINK_ReadReg(FPS12)  returns 0x00000000 (0000ms, 0743ms total)
T246C 014:134 JLINK_ReadReg(FPS13)  returns 0x00000000 (0000ms, 0743ms total)
T246C 014:134 JLINK_ReadReg(FPS14)  returns 0x00000000 (0000ms, 0743ms total)
T246C 014:134 JLINK_ReadReg(FPS15)  returns 0x00000000 (0000ms, 0743ms total)
T246C 014:134 JLINK_ReadReg(FPS16)  returns 0x00000000 (0000ms, 0743ms total)
T246C 014:134 JLINK_ReadReg(FPS17)  returns 0x00000000 (0000ms, 0743ms total)
T246C 014:134 JLINK_ReadReg(FPS18)  returns 0x00000000 (0000ms, 0743ms total)
T246C 014:134 JLINK_ReadReg(FPS19)  returns 0x00000000 (0000ms, 0743ms total)
T246C 014:134 JLINK_ReadReg(FPS20)  returns 0x00000000 (0000ms, 0743ms total)
T246C 014:134 JLINK_ReadReg(FPS21)  returns 0x00000000 (0000ms, 0743ms total)
T246C 014:134 JLINK_ReadReg(FPS22)  returns 0x00000000 (0000ms, 0743ms total)
T246C 014:134 JLINK_ReadReg(FPS23)  returns 0x00000000 (0000ms, 0743ms total)
T246C 014:134 JLINK_ReadReg(FPS24)  returns 0x00000000 (0000ms, 0743ms total)
T246C 014:134 JLINK_ReadReg(FPS25)  returns 0x00000000 (0000ms, 0743ms total)
T246C 014:135 JLINK_ReadReg(FPS26)  returns 0x00000000 (0000ms, 0744ms total)
T246C 014:135 JLINK_ReadReg(FPS27)  returns 0x00000000 (0000ms, 0744ms total)
T246C 014:135 JLINK_ReadReg(FPS28)  returns 0x00000000 (0000ms, 0744ms total)
T246C 014:135 JLINK_ReadReg(FPS29)  returns 0x00000000 (0000ms, 0744ms total)
T246C 014:135 JLINK_ReadReg(FPS30)  returns 0x00000000 (0000ms, 0744ms total)
T246C 014:135 JLINK_ReadReg(FPS31)  returns 0x00000000 (0000ms, 0744ms total)
T246C 014:927 JLINK_ReadMem (0x080009D6, 0x0002 Bytes, ...) -- Read from C cache (2 bytes @ 0x080009D6) - Data: 08 4C  returns 0x00 (0000ms, 0744ms total)
T246C 014:927 JLINK_ReadMem (0x080009D8, 0x003C Bytes, ...) -- Read from C cache (60 bytes @ 0x080009D8) - Data: 08 49 20 68 88 42 09 D1 4F F0 FF 31 20 46 0B F0 ...  returns 0x00 (0000ms, 0744ms total)
T246C 014:927 JLINK_Step() -- Read from C cache (2 bytes @ 0x080009D6) -- Read from C cache (4 bytes @ 0x080009F8) -- Simulated  returns 0x00 (0001ms, 0745ms total)
T246C 014:928 JLINK_ReadReg(R15 (PC))  returns 0x080009D8 (0000ms, 0745ms total)
T246C 014:928 JLINK_ReadReg(XPSR)  returns 0x41000000 (0000ms, 0745ms total)
T246C 014:928 JLINK_ReadReg(R0)  returns 0x00000000 (0000ms, 0745ms total)
T246C 014:928 JLINK_ReadReg(R1)  returns 0x00000001 (0000ms, 0745ms total)
T246C 014:928 JLINK_ReadReg(R2)  returns 0x000000B4 (0000ms, 0745ms total)
T246C 014:928 JLINK_ReadReg(R3)  returns 0x00000001 (0000ms, 0745ms total)
T246C 014:928 JLINK_ReadReg(R4)  returns 0x0801FFFC (0000ms, 0745ms total)
T246C 014:928 JLINK_ReadReg(R5)  returns 0x00000000 (0000ms, 0745ms total)
T246C 014:928 JLINK_ReadReg(R6)  returns 0x00000000 (0000ms, 0745ms total)
T246C 014:928 JLINK_ReadReg(R7)  returns 0x00000000 (0000ms, 0745ms total)
T246C 014:928 JLINK_ReadReg(R8)  returns 0x00000000 (0000ms, 0745ms total)
T246C 014:928 JLINK_ReadReg(R9)  returns 0x00000000 (0000ms, 0745ms total)
T246C 014:928 JLINK_ReadReg(R10)  returns 0x00000000 (0000ms, 0745ms total)
T246C 014:928 JLINK_ReadReg(R11)  returns 0x00000000 (0000ms, 0745ms total)
T246C 014:928 JLINK_ReadReg(R12)  returns 0x00000150 (0000ms, 0745ms total)
T246C 014:929 JLINK_ReadReg(R13 (SP))  returns 0x20011F90 (0000ms, 0745ms total)
T246C 014:929 JLINK_ReadReg(R14)  returns 0x08010261 (0000ms, 0745ms total)
T246C 014:929 JLINK_ReadReg(R15 (PC))  returns 0x080009D8 (0000ms, 0745ms total)
T246C 014:929 JLINK_ReadReg(XPSR)  returns 0x41000000 (0000ms, 0745ms total)
T246C 014:929 JLINK_ReadReg(MSP)  returns 0x20011F90 (0000ms, 0745ms total)
T246C 014:929 JLINK_ReadReg(PSP)  returns 0x00000000 (0000ms, 0745ms total)
T246C 014:929 JLINK_ReadReg(CFBP)  returns 0x00000000 (0000ms, 0745ms total)
T246C 014:929 JLINK_ReadReg(FPSCR)  returns 0x00000000 (0000ms, 0745ms total)
T246C 014:929 JLINK_ReadReg(FPS0)  returns 0x00000000 (0000ms, 0745ms total)
T246C 014:929 JLINK_ReadReg(FPS1)  returns 0x00000000 (0000ms, 0745ms total)
T246C 014:929 JLINK_ReadReg(FPS2)  returns 0x00000000 (0000ms, 0745ms total)
T246C 014:929 JLINK_ReadReg(FPS3)  returns 0x00000000 (0000ms, 0745ms total)
T246C 014:929 JLINK_ReadReg(FPS4)  returns 0x00000000 (0000ms, 0745ms total)
T246C 014:929 JLINK_ReadReg(FPS5)  returns 0x00000000 (0000ms, 0745ms total)
T246C 014:929 JLINK_ReadReg(FPS6)  returns 0x00000000 (0000ms, 0745ms total)
T246C 014:929 JLINK_ReadReg(FPS7)  returns 0x00000000 (0000ms, 0745ms total)
T246C 014:929 JLINK_ReadReg(FPS8)  returns 0x00000000 (0000ms, 0745ms total)
T246C 014:929 JLINK_ReadReg(FPS9)  returns 0x00000000 (0000ms, 0745ms total)
T246C 014:929 JLINK_ReadReg(FPS10)  returns 0x00000000 (0000ms, 0745ms total)
T246C 014:929 JLINK_ReadReg(FPS11)  returns 0x00000000 (0000ms, 0745ms total)
T246C 014:929 JLINK_ReadReg(FPS12)  returns 0x00000000 (0000ms, 0745ms total)
T246C 014:930 JLINK_ReadReg(FPS13)  returns 0x00000000 (0000ms, 0745ms total)
T246C 014:930 JLINK_ReadReg(FPS14)  returns 0x00000000 (0000ms, 0745ms total)
T246C 014:930 JLINK_ReadReg(FPS15)  returns 0x00000000 (0000ms, 0745ms total)
T246C 014:930 JLINK_ReadReg(FPS16)  returns 0x00000000 (0000ms, 0745ms total)
T246C 014:930 JLINK_ReadReg(FPS17)  returns 0x00000000 (0000ms, 0745ms total)
T246C 014:930 JLINK_ReadReg(FPS18)  returns 0x00000000 (0000ms, 0745ms total)
T246C 014:930 JLINK_ReadReg(FPS19)  returns 0x00000000 (0000ms, 0745ms total)
T246C 014:930 JLINK_ReadReg(FPS20)  returns 0x00000000 (0000ms, 0745ms total)
T246C 014:930 JLINK_ReadReg(FPS21)  returns 0x00000000 (0000ms, 0745ms total)
T246C 014:930 JLINK_ReadReg(FPS22)  returns 0x00000000 (0000ms, 0745ms total)
T246C 014:930 JLINK_ReadReg(FPS23)  returns 0x00000000 (0000ms, 0745ms total)
T246C 014:930 JLINK_ReadReg(FPS24)  returns 0x00000000 (0000ms, 0745ms total)
T246C 014:930 JLINK_ReadReg(FPS25)  returns 0x00000000 (0000ms, 0745ms total)
T246C 014:930 JLINK_ReadReg(FPS26)  returns 0x00000000 (0000ms, 0745ms total)
T246C 014:930 JLINK_ReadReg(FPS27)  returns 0x00000000 (0000ms, 0745ms total)
T246C 014:930 JLINK_ReadReg(FPS28)  returns 0x00000000 (0000ms, 0745ms total)
T246C 014:930 JLINK_ReadReg(FPS29)  returns 0x00000000 (0000ms, 0745ms total)
T246C 014:930 JLINK_ReadReg(FPS30)  returns 0x00000000 (0000ms, 0745ms total)
T246C 014:930 JLINK_ReadReg(FPS31)  returns 0x00000000 (0000ms, 0745ms total)
T0F60 020:380 JLINK_ReadMem (0x0801FFFC, 0x0004 Bytes, ...) -- CPU_ReadMem(64 bytes @ 0x0801FFC0) -- Updating C cache (64 bytes @ 0x0801FFC0) -- Read from C cache (4 bytes @ 0x0801FFFC) - Data: 7D 4A 8E 2F  returns 0x00 (0002ms, 0747ms total)
T0F60 029:057 JLINK_ReadMem (0x2F8E4A7D, 0x0099 Bytes, ...) -- CPU_ReadMem(153 bytes @ 0x2F8E4A7D) - Data: AA AA AA AA AA AA AA AA AA AA AA AA AA AA AA AA ...  returns 0x01 (0003ms, 0750ms total)
T0F60 029:074 JLINK_ReadMem (0x2F8E4A7D, 0x00E0 Bytes, ...) -- CPU_ReadMem(224 bytes @ 0x2F8E4A7D) - Data: AA AA AA AA AA AA AA AA AA AA AA AA AA AA AA AA ...  returns 0x01 (0002ms, 0752ms total)
T0F60 029:076 JLINK_ReadMem (0x2F8E4A7D, 0x00E0 Bytes, ...) -- CPU_ReadMem(224 bytes @ 0x2F8E4A7D) - Data: AA AA AA AA AA AA AA AA AA AA AA AA AA AA AA AA ...  returns 0x01 (0002ms, 0754ms total)
T0F60 029:089 JLINK_ReadMem (0x2F8E4A7D, 0x00E0 Bytes, ...) -- CPU_ReadMem(224 bytes @ 0x2F8E4A7D) - Data: AA AA AA AA AA AA AA AA AA AA AA AA AA AA AA AA ...  returns 0x01 (0002ms, 0756ms total)
T0F60 029:092 JLINK_ReadMem (0x2F8E4A7D, 0x00E0 Bytes, ...) -- CPU_ReadMem(224 bytes @ 0x2F8E4A7D) - Data: AA AA AA AA AA AA AA AA AA AA AA AA AA AA AA AA ...  returns 0x01 (0003ms, 0759ms total)
T0F60 029:098 JLINK_ReadMem (0x2F8E4A7D, 0x00E0 Bytes, ...) -- CPU_ReadMem(224 bytes @ 0x2F8E4A7D) - Data: AA AA AA AA AA AA AA AA AA AA AA AA AA AA AA AA ...  returns 0x01 (0002ms, 0761ms total)
T0F60 029:101 JLINK_ReadMem (0x2F8E4A7D, 0x00E0 Bytes, ...) -- CPU_ReadMem(224 bytes @ 0x2F8E4A7D) - Data: AA AA AA AA AA AA AA AA AA AA AA AA AA AA AA AA ...  returns 0x01 (0002ms, 0763ms total)
T246C 051:616 JLINK_ReadMem (0x080009D8, 0x003C Bytes, ...) -- Read from C cache (60 bytes @ 0x080009D8) - Data: 08 49 20 68 88 42 09 D1 4F F0 FF 31 20 46 0B F0 ...  returns 0x00 (0000ms, 0763ms total)
T246C 051:616 JLINK_Step() -- Read from C cache (2 bytes @ 0x080009D8) -- Read from C cache (4 bytes @ 0x080009FC) -- Simulated  returns 0x00 (0001ms, 0764ms total)
T246C 051:617 JLINK_ReadReg(R15 (PC))  returns 0x080009DA (0000ms, 0764ms total)
T246C 051:617 JLINK_ReadReg(XPSR)  returns 0x41000000 (0000ms, 0764ms total)
T246C 051:617 JLINK_ReadReg(R0)  returns 0x00000000 (0000ms, 0764ms total)
T246C 051:617 JLINK_ReadReg(R1)  returns 0x2F8E4A7D (0000ms, 0764ms total)
T246C 051:617 JLINK_ReadReg(R2)  returns 0x000000B4 (0000ms, 0764ms total)
T246C 051:617 JLINK_ReadReg(R3)  returns 0x00000001 (0000ms, 0764ms total)
T246C 051:617 JLINK_ReadReg(R4)  returns 0x0801FFFC (0000ms, 0764ms total)
T246C 051:617 JLINK_ReadReg(R5)  returns 0x00000000 (0000ms, 0764ms total)
T246C 051:617 JLINK_ReadReg(R6)  returns 0x00000000 (0000ms, 0764ms total)
T246C 051:617 JLINK_ReadReg(R7)  returns 0x00000000 (0000ms, 0764ms total)
T246C 051:617 JLINK_ReadReg(R8)  returns 0x00000000 (0000ms, 0764ms total)
T246C 051:617 JLINK_ReadReg(R9)  returns 0x00000000 (0000ms, 0764ms total)
T246C 051:617 JLINK_ReadReg(R10)  returns 0x00000000 (0000ms, 0764ms total)
T246C 051:617 JLINK_ReadReg(R11)  returns 0x00000000 (0000ms, 0764ms total)
T246C 051:618 JLINK_ReadReg(R12)  returns 0x00000150 (0000ms, 0765ms total)
T246C 051:618 JLINK_ReadReg(R13 (SP))  returns 0x20011F90 (0000ms, 0765ms total)
T246C 051:618 JLINK_ReadReg(R14)  returns 0x08010261 (0000ms, 0765ms total)
T246C 051:618 JLINK_ReadReg(R15 (PC))  returns 0x080009DA (0000ms, 0765ms total)
T246C 051:618 JLINK_ReadReg(XPSR)  returns 0x41000000 (0000ms, 0765ms total)
T246C 051:618 JLINK_ReadReg(MSP)  returns 0x20011F90 (0000ms, 0765ms total)
T246C 051:618 JLINK_ReadReg(PSP)  returns 0x00000000 (0000ms, 0765ms total)
T246C 051:618 JLINK_ReadReg(CFBP)  returns 0x00000000 (0000ms, 0765ms total)
T246C 051:618 JLINK_ReadReg(FPSCR)  returns 0x00000000 (0000ms, 0765ms total)
T246C 051:618 JLINK_ReadReg(FPS0)  returns 0x00000000 (0000ms, 0765ms total)
T246C 051:618 JLINK_ReadReg(FPS1)  returns 0x00000000 (0000ms, 0765ms total)
T246C 051:618 JLINK_ReadReg(FPS2)  returns 0x00000000 (0000ms, 0765ms total)
T246C 051:618 JLINK_ReadReg(FPS3)  returns 0x00000000 (0000ms, 0765ms total)
T246C 051:618 JLINK_ReadReg(FPS4)  returns 0x00000000 (0000ms, 0765ms total)
T246C 051:618 JLINK_ReadReg(FPS5)  returns 0x00000000 (0000ms, 0765ms total)
T246C 051:618 JLINK_ReadReg(FPS6)  returns 0x00000000 (0000ms, 0765ms total)
T246C 051:618 JLINK_ReadReg(FPS7)  returns 0x00000000 (0000ms, 0765ms total)
T246C 051:618 JLINK_ReadReg(FPS8)  returns 0x00000000 (0000ms, 0765ms total)
T246C 051:618 JLINK_ReadReg(FPS9)  returns 0x00000000 (0000ms, 0765ms total)
T246C 051:618 JLINK_ReadReg(FPS10)  returns 0x00000000 (0000ms, 0765ms total)
T246C 051:618 JLINK_ReadReg(FPS11)  returns 0x00000000 (0000ms, 0765ms total)
T246C 051:618 JLINK_ReadReg(FPS12)  returns 0x00000000 (0000ms, 0765ms total)
T246C 051:618 JLINK_ReadReg(FPS13)  returns 0x00000000 (0000ms, 0765ms total)
T246C 051:618 JLINK_ReadReg(FPS14)  returns 0x00000000 (0000ms, 0765ms total)
T246C 051:618 JLINK_ReadReg(FPS15)  returns 0x00000000 (0000ms, 0765ms total)
T246C 051:619 JLINK_ReadReg(FPS16)  returns 0x00000000 (0000ms, 0765ms total)
T246C 051:619 JLINK_ReadReg(FPS17)  returns 0x00000000 (0000ms, 0765ms total)
T246C 051:619 JLINK_ReadReg(FPS18)  returns 0x00000000 (0000ms, 0765ms total)
T246C 051:619 JLINK_ReadReg(FPS19)  returns 0x00000000 (0000ms, 0765ms total)
T246C 051:619 JLINK_ReadReg(FPS20)  returns 0x00000000 (0000ms, 0765ms total)
T246C 051:619 JLINK_ReadReg(FPS21)  returns 0x00000000 (0000ms, 0765ms total)
T246C 051:619 JLINK_ReadReg(FPS22)  returns 0x00000000 (0000ms, 0765ms total)
T246C 051:619 JLINK_ReadReg(FPS23)  returns 0x00000000 (0000ms, 0765ms total)
T246C 051:619 JLINK_ReadReg(FPS24)  returns 0x00000000 (0000ms, 0765ms total)
T246C 051:619 JLINK_ReadReg(FPS25)  returns 0x00000000 (0000ms, 0765ms total)
T246C 051:619 JLINK_ReadReg(FPS26)  returns 0x00000000 (0000ms, 0765ms total)
T246C 051:619 JLINK_ReadReg(FPS27)  returns 0x00000000 (0000ms, 0765ms total)
T246C 051:619 JLINK_ReadReg(FPS28)  returns 0x00000000 (0000ms, 0765ms total)
T246C 051:619 JLINK_ReadReg(FPS29)  returns 0x00000000 (0000ms, 0765ms total)
T246C 051:619 JLINK_ReadReg(FPS30)  returns 0x00000000 (0000ms, 0765ms total)
T246C 051:619 JLINK_ReadReg(FPS31)  returns 0x00000000 (0000ms, 0765ms total)
T0F60 051:620 JLINK_ReadMem (0x0801FFFC, 0x0004 Bytes, ...) -- Read from C cache (4 bytes @ 0x0801FFFC) - Data: 7D 4A 8E 2F  returns 0x00 (0000ms, 0765ms total)
T0F60 051:621 JLINK_ReadMem (0x2F8E4A7D, 0x00E0 Bytes, ...) -- CPU_ReadMem(224 bytes @ 0x2F8E4A7D) - Data: AA AA AA AA AA AA AA AA AA AA AA AA AA AA AA AA ...  returns 0x01 (0002ms, 0767ms total)
T0F60 051:625 JLINK_ReadMem (0x080009DA, 0x0002 Bytes, ...) -- Read from C cache (2 bytes @ 0x080009DA) - Data: 20 68  returns 0x00 (0000ms, 0767ms total)
T0F60 051:625 JLINK_ReadMem (0x080009DC, 0x003C Bytes, ...) -- Read from C cache (60 bytes @ 0x080009DC) - Data: 88 42 09 D1 4F F0 FF 31 20 46 0B F0 61 F9 08 B9 ...  returns 0x00 (0000ms, 0767ms total)
T246C 052:445 JLINK_Step() -- Read from C cache (2 bytes @ 0x080009DA) -- Read from C cache (4 bytes @ 0x0801FFFC) -- Simulated  returns 0x00 (0001ms, 0768ms total)
T246C 052:446 JLINK_ReadReg(R15 (PC))  returns 0x080009DC (0000ms, 0768ms total)
T246C 052:446 JLINK_ReadReg(XPSR)  returns 0x41000000 (0000ms, 0768ms total)
T246C 052:447 JLINK_ReadReg(R0)  returns 0x2F8E4A7D (0000ms, 0768ms total)
T246C 052:447 JLINK_ReadReg(R1)  returns 0x2F8E4A7D (0000ms, 0768ms total)
T246C 052:447 JLINK_ReadReg(R2)  returns 0x000000B4 (0000ms, 0768ms total)
T246C 052:447 JLINK_ReadReg(R3)  returns 0x00000001 (0000ms, 0768ms total)
T246C 052:447 JLINK_ReadReg(R4)  returns 0x0801FFFC (0000ms, 0768ms total)
T246C 052:447 JLINK_ReadReg(R5)  returns 0x00000000 (0000ms, 0768ms total)
T246C 052:447 JLINK_ReadReg(R6)  returns 0x00000000 (0000ms, 0768ms total)
T246C 052:447 JLINK_ReadReg(R7)  returns 0x00000000 (0000ms, 0768ms total)
T246C 052:447 JLINK_ReadReg(R8)  returns 0x00000000 (0000ms, 0768ms total)
T246C 052:447 JLINK_ReadReg(R9)  returns 0x00000000 (0000ms, 0768ms total)
T246C 052:447 JLINK_ReadReg(R10)  returns 0x00000000 (0000ms, 0768ms total)
T246C 052:447 JLINK_ReadReg(R11)  returns 0x00000000 (0000ms, 0768ms total)
T246C 052:447 JLINK_ReadReg(R12)  returns 0x00000150 (0000ms, 0768ms total)
T246C 052:447 JLINK_ReadReg(R13 (SP))  returns 0x20011F90 (0000ms, 0768ms total)
T246C 052:447 JLINK_ReadReg(R14)  returns 0x08010261 (0000ms, 0768ms total)
T246C 052:447 JLINK_ReadReg(R15 (PC))  returns 0x080009DC (0000ms, 0768ms total)
T246C 052:447 JLINK_ReadReg(XPSR)  returns 0x41000000 (0000ms, 0768ms total)
T246C 052:447 JLINK_ReadReg(MSP)  returns 0x20011F90 (0000ms, 0768ms total)
T246C 052:447 JLINK_ReadReg(PSP)  returns 0x00000000 (0000ms, 0768ms total)
T246C 052:447 JLINK_ReadReg(CFBP)  returns 0x00000000 (0001ms, 0769ms total)
T246C 052:448 JLINK_ReadReg(FPSCR)  returns 0x00000000 (0000ms, 0769ms total)
T246C 052:448 JLINK_ReadReg(FPS0)  returns 0x00000000 (0000ms, 0769ms total)
T246C 052:448 JLINK_ReadReg(FPS1)  returns 0x00000000 (0000ms, 0769ms total)
T246C 052:448 JLINK_ReadReg(FPS2)  returns 0x00000000 (0000ms, 0769ms total)
T246C 052:448 JLINK_ReadReg(FPS3)  returns 0x00000000 (0000ms, 0769ms total)
T246C 052:448 JLINK_ReadReg(FPS4)  returns 0x00000000 (0000ms, 0769ms total)
T246C 052:448 JLINK_ReadReg(FPS5)  returns 0x00000000 (0000ms, 0769ms total)
T246C 052:448 JLINK_ReadReg(FPS6)  returns 0x00000000 (0000ms, 0769ms total)
T246C 052:448 JLINK_ReadReg(FPS7)  returns 0x00000000 (0000ms, 0769ms total)
T246C 052:448 JLINK_ReadReg(FPS8)  returns 0x00000000 (0000ms, 0769ms total)
T246C 052:448 JLINK_ReadReg(FPS9)  returns 0x00000000 (0000ms, 0769ms total)
T246C 052:448 JLINK_ReadReg(FPS10)  returns 0x00000000 (0000ms, 0769ms total)
T246C 052:448 JLINK_ReadReg(FPS11)  returns 0x00000000 (0000ms, 0769ms total)
T246C 052:448 JLINK_ReadReg(FPS12)  returns 0x00000000 (0000ms, 0769ms total)
T246C 052:448 JLINK_ReadReg(FPS13)  returns 0x00000000 (0000ms, 0769ms total)
T246C 052:448 JLINK_ReadReg(FPS14)  returns 0x00000000 (0000ms, 0769ms total)
T246C 052:448 JLINK_ReadReg(FPS15)  returns 0x00000000 (0000ms, 0769ms total)
T246C 052:448 JLINK_ReadReg(FPS16)  returns 0x00000000 (0000ms, 0769ms total)
T246C 052:448 JLINK_ReadReg(FPS17)  returns 0x00000000 (0000ms, 0769ms total)
T246C 052:448 JLINK_ReadReg(FPS18)  returns 0x00000000 (0000ms, 0769ms total)
T246C 052:449 JLINK_ReadReg(FPS19)  returns 0x00000000 (0000ms, 0770ms total)
T246C 052:449 JLINK_ReadReg(FPS20)  returns 0x00000000 (0000ms, 0770ms total)
T246C 052:449 JLINK_ReadReg(FPS21)  returns 0x00000000 (0000ms, 0770ms total)
T246C 052:449 JLINK_ReadReg(FPS22)  returns 0x00000000 (0000ms, 0770ms total)
T246C 052:449 JLINK_ReadReg(FPS23)  returns 0x00000000 (0000ms, 0770ms total)
T246C 052:449 JLINK_ReadReg(FPS24)  returns 0x00000000 (0000ms, 0770ms total)
T246C 052:449 JLINK_ReadReg(FPS25)  returns 0x00000000 (0000ms, 0770ms total)
T246C 052:449 JLINK_ReadReg(FPS26)  returns 0x00000000 (0000ms, 0770ms total)
T246C 052:449 JLINK_ReadReg(FPS27)  returns 0x00000000 (0000ms, 0770ms total)
T246C 052:449 JLINK_ReadReg(FPS28)  returns 0x00000000 (0000ms, 0770ms total)
T246C 052:449 JLINK_ReadReg(FPS29)  returns 0x00000000 (0000ms, 0770ms total)
T246C 052:449 JLINK_ReadReg(FPS30)  returns 0x00000000 (0000ms, 0770ms total)
T246C 052:449 JLINK_ReadReg(FPS31)  returns 0x00000000 (0000ms, 0770ms total)
T0F60 052:451 JLINK_ReadMem (0x0801FFFC, 0x0004 Bytes, ...) -- Read from C cache (4 bytes @ 0x0801FFFC) - Data: 7D 4A 8E 2F  returns 0x00 (0000ms, 0770ms total)
T0F60 052:451 JLINK_ReadMem (0x2F8E4A7D, 0x00E0 Bytes, ...) -- CPU_ReadMem(224 bytes @ 0x2F8E4A7D) - Data: AA AA AA AA AA AA AA AA AA AA AA AA AA AA AA AA ...  returns 0x01 (0002ms, 0772ms total)
T246C 053:481 JLINK_ReadMem (0x080009DC, 0x003C Bytes, ...) -- Read from C cache (60 bytes @ 0x080009DC) - Data: 88 42 09 D1 4F F0 FF 31 20 46 0B F0 61 F9 08 B9 ...  returns 0x00 (0003ms, 0775ms total)
T246C 053:484 JLINK_Step() -- Read from C cache (2 bytes @ 0x080009DC) -- Simulated  returns 0x00 (0001ms, 0776ms total)
T246C 053:485 JLINK_ReadReg(R15 (PC))  returns 0x080009DE (0000ms, 0776ms total)
T246C 053:485 JLINK_ReadReg(XPSR)  returns 0x61000000 (0000ms, 0776ms total)
T246C 053:485 JLINK_ReadReg(R0)  returns 0x2F8E4A7D (0000ms, 0776ms total)
T246C 053:485 JLINK_ReadReg(R1)  returns 0x2F8E4A7D (0000ms, 0776ms total)
T246C 053:485 JLINK_ReadReg(R2)  returns 0x000000B4 (0000ms, 0776ms total)
T246C 053:485 JLINK_ReadReg(R3)  returns 0x00000001 (0000ms, 0776ms total)
T246C 053:485 JLINK_ReadReg(R4)  returns 0x0801FFFC (0000ms, 0776ms total)
